shd2 /home/smooker/src/new_sch5636/i2c # i2cdump 0 0x73 b
WARNING! This program can confuse your I2C bus, cause data loss and worse!
I will probe file /dev/i2c-0, address 0x73, mode byte
Continue? [Y/n] y
     0  1  2  3  4  5  6  7  8  9  a  b  c  d  e  f    0123456789abcdef
00: 00 00 00 00 00 77 3f 00 00 80 0c 03 00 00 00 01    .....w?..???...?
10: 00 00 00 00 00 1f 00 00 2f 2f 2f 2f 00 4f 4f 4f    .....?..////.OOO
20: 4f 00 bf b3 d0 bf 6e 61 62 5f 66 66 fb 1a 5a 1d    O.????nab_ff??Z?
30: 34 1e 39 0f 00 59 5e 31 33 11 08 00 a5 01 5c a0    4?9?.Y^13??.??\?
40: 01 00 00 00 00 00 00 00 00 00 00 00 00 00 00 00    ?...............
50: 00 00 00 00 00 00 00 ff 00 ff 00 ff 00 ff 00 ff    ................
60: 00 ff 1f 1b e3 1c be 1d ff ff 00 00 00 00 03 09    ..??????......??
70: 00 01 02 03 04 03 00 00 00 00 00 00 00 00 00 00    .?????..........
80: e0 e0 e0 bb bb 61 64 64 64 67 80 80 80 80 e0 00    ?????adddg?????.
90: 0e 0f 10 11 0d 12 0d 0e 64 64 64 64 04 00 00 00    ????????dddd?...
a0: 00 00 00 00 04 04 04 04 00 00 00 00 00 aa 2d 2d    ....????.....?--
b0: 2d 2d 2d 2d 00 00 00 00 ff 00 30 00 00 00 00 00    ----......0.....
c0: 00 00 00 00 ff ff ff ff ff ff 00 00 00 00 00 00    ................
d0: 00 ff 00 00 00 00 ff 00 00 00 00 ff ff 00 00 00    ................
e0: ff 00 00 e2 e2 00 00 00 48 0c 5b 5b 5b 5b 00 02    ...??...H?[[[[.?
f0: 30 31 19 19 ff ff 00 00 10 00 00 00 06 00 00 00    01??....?...?...